time;V(/vin);V(/vout);
0.1;0.00772018;-2.99065;
0.100001;0.0190299;-2.98465;
0.100001;0.0303395;-2.97864;
0.100001;0.0416491;-2.97261;
0.100001;0.0529584;-2.96658;
0.100002;0.0642676;-2.96054;
0.100002;0.0755766;-2.95448;
0.100002;0.0868853;-2.94842;
0.100003;0.0981937;-2.94234;
0.100003;0.109502;-2.93625;
0.100003;0.120809;-2.93016;
0.100004;0.132117;-2.92405;
0.100004;0.143423;-2.91793;
0.100004;0.15473;-2.9118;
0.100004;0.166035;-2.90567;
0.100005;0.17734;-2.89952;
0.100005;0.188645;-2.89336;
0.100005;0.199949;-2.88719;
0.100006;0.211252;-2.88101;
0.100006;0.222554;-2.87482;
0.100006;0.233856;-2.86862;
0.100007;0.245156;-2.86241;
0.100007;0.256456;-2.85619;
0.100007;0.267755;-2.84996;
0.100007;0.279053;-2.84372;
0.100008;0.29035;-2.83747;
0.100008;0.301646;-2.83121;
0.100008;0.312941;-2.82494;
0.100009;0.324235;-2.81866;
0.100009;0.335527;-2.81237;
0.100009;0.346819;-2.80607;
0.10001;0.358109;-2.79975;
0.10001;0.369398;-2.79343;
0.10001;0.380686;-2.7871;
0.10001;0.391972;-2.78076;
0.100011;0.403257;-2.77441;
0.100011;0.41454;-2.76805;
0.100011;0.425822;-2.76168;
0.100012;0.437103;-2.7553;
0.100012;0.448381;-2.74891;
0.100012;0.459659;-2.74251;
0.100013;0.470934;-2.7361;
0.100013;0.482208;-2.72968;
0.100013;0.493481;-2.72326;
0.100013;0.504751;-2.71682;
0.100014;0.51602;-2.71037;
0.100014;0.527287;-2.70391;
0.100014;0.538552;-2.69745;
0.100015;0.549815;-2.69097;
0.100015;0.561076;-2.68448;
0.100015;0.572335;-2.67799;
0.100016;0.583592;-2.67148;
0.100016;0.594848;-2.66497;
0.100016;0.6061;-2.65844;
0.100016;0.617351;-2.65191;
0.100017;0.6286;-2.64536;
0.100017;0.639846;-2.63881;
0.100017;0.65109;-2.63225;
0.100018;0.662332;-2.62568;
0.100018;0.673572;-2.6191;
0.100018;0.684809;-2.61251;
0.100019;0.696043;-2.60591;
0.100019;0.707275;-2.5993;
0.100019;0.718505;-2.59268;
0.100019;0.729732;-2.58606;
0.10002;0.740957;-2.57942;
0.10002;0.752178;-2.57277;
0.10002;0.763398;-2.56612;
0.100021;0.774614;-2.55946;
0.100021;0.785828;-2.55278;
0.100021;0.797039;-2.5461;
0.100022;0.808247;-2.53941;
0.100022;0.819452;-2.53271;
0.100022;0.830654;-2.526;
0.100022;0.841854;-2.51928;
0.100023;0.85305;-2.51256;
0.100023;0.864243;-2.50582;
0.100023;0.875433;-2.49908;
0.100024;0.886621;-2.49232;
0.100024;0.897805;-2.48556;
0.100024;0.908985;-2.47879;
0.100025;0.920163;-2.47201;
0.100025;0.931337;-2.46522;
0.100025;0.942508;-2.45842;
0.100025;0.953676;-2.45162;
0.100026;0.96484;-2.4448;
0.100026;0.976001;-2.43798;
0.100026;0.987158;-2.43115;
0.100027;0.998312;-2.42431;
0.100027;1.00946;-2.41746;
0.100027;1.02061;-2.4106;
0.100028;1.03175;-2.40373;
0.100028;1.04289;-2.39686;
0.100028;1.05403;-2.38997;
0.100028;1.06516;-2.38308;
0.100029;1.07629;-2.37618;
0.100029;1.08741;-2.36927;
0.100029;1.09853;-2.36235;
0.10003;1.10965;-2.35543;
0.10003;1.12076;-2.34849;
0.10003;1.13187;-2.34155;
0.100031;1.14298;-2.3346;
0.100031;1.15408;-2.32764;
0.100031;1.16517;-2.32067;
0.100031;1.17626;-2.3137;
0.100032;1.18735;-2.30671;
0.100032;1.19844;-2.29972;
0.100032;1.20952;-2.29272;
0.100033;1.22059;-2.28571;
0.100033;1.23166;-2.27869;
0.100033;1.24273;-2.27167;
0.100034;1.25379;-2.26464;
0.100034;1.26485;-2.2576;
0.100034;1.2759;-2.25055;
0.100034;1.28695;-2.24349;
0.100035;1.298;-2.23643;
0.100035;1.30904;-2.22935;
0.100035;1.32007;-2.22227;
0.100036;1.3311;-2.21518;
0.100036;1.34213;-2.20809;
0.100036;1.35315;-2.20098;
0.100037;1.36416;-2.19387;
0.100037;1.37517;-2.18675;
0.100037;1.38618;-2.17962;
0.100037;1.39718;-2.17249;
0.100038;1.40818;-2.16534;
0.100038;1.41917;-2.15819;
0.100038;1.43016;-2.15103;
0.100039;1.44114;-2.14387;
0.100039;1.45211;-2.13669;
0.100039;1.46308;-2.12951;
0.10004;1.47405;-2.12232;
0.10004;1.48501;-2.11513;
0.10004;1.49597;-2.10792;
0.10004;1.50692;-2.10071;
0.100041;1.51786;-2.09349;
0.100041;1.5288;-2.08627;
0.100041;1.53973;-2.07903;
0.100042;1.55066;-2.07179;
0.100042;1.56158;-2.06454;
0.100042;1.5725;-2.05729;
0.100043;1.58341;-2.05002;
0.100043;1.59432;-2.04275;
0.100043;1.60522;-2.03548;
0.100043;1.61611;-2.02819;
0.100044;1.627;-2.0209;
0.100044;1.63789;-2.0136;
0.100044;1.64876;-2.00629;
0.100045;1.65963;-1.99898;
0.100045;1.6705;-1.99166;
0.100045;1.68136;-1.98433;
0.100046;1.69221;-1.977;
0.100046;1.70306;-1.96965;
0.100046;1.7139;-1.9623;
0.100046;1.72474;-1.95495;
0.100047;1.73557;-1.94759;
0.100047;1.74639;-1.94022;
0.100047;1.75721;-1.93284;
0.100048;1.76802;-1.92546;
0.100048;1.77882;-1.91807;
0.100048;1.78962;-1.91067;
0.100049;1.80041;-1.90326;
0.100049;1.8112;-1.89585;
0.100049;1.82198;-1.88844;
0.100049;1.83275;-1.88101;
0.10005;1.84351;-1.87358;
0.10005;1.85427;-1.86614;
0.10005;1.86503;-1.8587;
0.100051;1.87577;-1.85125;
0.100051;1.88651;-1.84379;
0.100051;1.89724;-1.83633;
0.100052;1.90797;-1.82886;
0.100052;1.91869;-1.82138;
0.100052;1.9294;-1.8139;
0.100052;1.94011;-1.80641;
0.100053;1.95081;-1.79891;
0.100053;1.9615;-1.79141;
0.100053;1.97218;-1.7839;
0.100054;1.98286;-1.77638;
0.100054;1.99353;-1.76886;
0.100054;2.0042;-1.76133;
0.100055;2.01485;-1.7538;
0.100055;2.0255;-1.74626;
0.100055;2.03614;-1.73871;
0.100055;2.04678;-1.73116;
0.100056;2.05741;-1.7236;
0.100056;2.06803;-1.71604;
0.100056;2.07864;-1.70847;
0.100057;2.08925;-1.70089;
0.100057;2.09984;-1.6933;
0.100057;2.11043;-1.68572;
0.100058;2.12102;-1.67812;
0.100058;2.13159;-1.67052;
0.100058;2.14216;-1.66291;
0.100058;2.15272;-1.6553;
0.100059;2.16328;-1.64768;
0.100059;2.17382;-1.64005;
0.100059;2.18436;-1.63242;
0.10006;2.19489;-1.62479;
0.10006;2.20541;-1.61715;
0.10006;2.21592;-1.6095;
0.100061;2.22643;-1.60184;
0.100061;2.23693;-1.59418;
0.100061;2.24742;-1.58652;
0.100061;2.2579;-1.57885;
0.100062;2.26838;-1.57117;
0.100062;2.27884;-1.56349;
0.100062;2.2893;-1.5558;
0.100063;2.29975;-1.54811;
0.100063;2.31019;-1.54041;
0.100063;2.32063;-1.53271;
0.100064;2.33105;-1.525;
0.100064;2.34147;-1.51728;
0.100064;2.35188;-1.50956;
0.100064;2.36228;-1.50184;
0.100065;2.37267;-1.49411;
0.100065;2.38305;-1.48637;
0.100065;2.39343;-1.47863;
0.100066;2.40379;-1.47088;
0.100066;2.41415;-1.46313;
0.100066;2.4245;-1.45537;
0.100067;2.43484;-1.44761;
0.100067;2.44518;-1.43984;
0.100067;2.4555;-1.43207;
0.100067;2.46581;-1.42429;
0.100068;2.47612;-1.41651;
0.100068;2.48642;-1.40872;
0.100068;2.49671;-1.40093;
0.100069;2.50699;-1.39313;
0.100069;2.51726;-1.38533;
0.100069;2.52752;-1.37752;
0.10007;2.53777;-1.36971;
0.10007;2.54801;-1.36189;
0.10007;2.55825;-1.35407;
0.10007;2.56848;-1.34624;
0.100071;2.57869;-1.33841;
0.100071;2.5889;-1.33057;
0.100071;2.5991;-1.32273;
0.100072;2.60929;-1.31489;
0.100072;2.61947;-1.30704;
0.100072;2.62964;-1.29918;
0.100073;2.6398;-1.29132;
0.100073;2.64995;-1.28346;
0.100073;2.66009;-1.27559;
0.100073;2.67022;-1.26771;
0.100074;2.68035;-1.25984;
0.100074;2.69046;-1.25195;
0.100074;2.70056;-1.24407;
0.100075;2.71066;-1.23617;
0.100075;2.72074;-1.22828;
0.100075;2.73082;-1.22038;
0.100076;2.74089;-1.21247;
0.100076;2.75094;-1.20456;
0.100076;2.76099;-1.19665;
0.100076;2.77102;-1.18873;
0.100077;2.78105;-1.18081;
0.100077;2.79107;-1.17289;
0.100077;2.80107;-1.16496;
0.100078;2.81107;-1.15702;
0.100078;2.82106;-1.14908;
0.100078;2.83103;-1.14114;
0.100079;2.841;-1.1332;
0.100079;2.85096;-1.12525;
0.100079;2.8609;-1.11729;
0.100079;2.87084;-1.10933;
0.10008;2.88076;-1.10137;
0.10008;2.89068;-1.0934;
0.10008;2.90059;-1.08543;
0.100081;2.91048;-1.07746;
0.100081;2.92037;-1.06948;
0.100081;2.93024;-1.0615;
0.100082;2.9401;-1.05352;
0.100082;2.94996;-1.04553;
0.100082;2.9598;-1.03753;
0.100082;2.96963;-1.02954;
0.100083;2.97946;-1.02154;
0.100083;2.98927;-1.01353;
0.100083;2.99907;-1.00553;
0.100084;3.00886;-0.997515;
0.100084;3.01864;-0.9895;
0.100084;3.02841;-0.981482;
0.100085;3.03816;-0.973461;
0.100085;3.04791;-0.965436;
0.100085;3.05765;-0.957407;
0.100085;3.06737;-0.949376;
0.100086;3.07709;-0.94134;
0.100086;3.08679;-0.933302;
0.100086;3.09648;-0.92526;
0.100087;3.10617;-0.917215;
0.100087;3.11584;-0.909166;
0.100087;3.1255;-0.901115;
0.100088;3.13515;-0.89306;
0.100088;3.14478;-0.885002;
0.100088;3.15441;-0.876941;
0.100088;3.16402;-0.868877;
0.100089;3.17363;-0.860809;
0.100089;3.18322;-0.852739;
0.100089;3.1928;-0.844666;
0.10009;3.20237;-0.836589;
0.10009;3.21193;-0.82851;
0.10009;3.22148;-0.820427;
0.100091;3.23101;-0.812342;
0.100091;3.24054;-0.804254;
0.100091;3.25005;-0.796163;
0.100091;3.25955;-0.788069;
0.100092;3.26904;-0.779972;
0.100092;3.27852;-0.771873;
0.100092;3.28798;-0.763771;
0.100093;3.29744;-0.755666;
0.100093;3.30688;-0.747559;
0.100093;3.31631;-0.739448;
0.100094;3.32573;-0.731336;
0.100094;3.33514;-0.72322;
0.100094;3.34453;-0.715102;
0.100094;3.35392;-0.706982;
0.100095;3.36329;-0.698859;
0.100095;3.37265;-0.690733;
0.100095;3.382;-0.682605;
0.100096;3.39133;-0.674475;
0.100096;3.40066;-0.666342;
0.100096;3.40997;-0.658207;
0.100097;3.41927;-0.650069;
0.100097;3.42856;-0.641929;
0.100097;3.43783;-0.633787;
0.100097;3.44709;-0.625643;
0.100098;3.45634;-0.617496;
0.100098;3.46558;-0.609347;
0.100098;3.47481;-0.601197;
0.100099;3.48402;-0.593043;
0.100099;3.49323;-0.584888;
0.100099;3.50241;-0.576731;
0.1001;3.51159;-0.568572;
0.1001;3.52075;-0.56041;
0.1001;3.52991;-0.552247;
0.1001;3.53905;-0.544082;
0.100101;3.54817;-0.535915;
0.100101;3.55729;-0.527745;
0.100101;3.56639;-0.519574;
0.100102;3.57548;-0.511402;
0.100102;3.58455;-0.503227;
0.100102;3.59362;-0.495051;
0.100103;3.60267;-0.486872;
0.100103;3.6117;-0.478692;
0.100103;3.62073;-0.470511;
0.100103;3.62974;-0.462327;
0.100104;3.63874;-0.454142;
0.100104;3.64772;-0.445956;
0.100104;3.6567;-0.437768;
0.100105;3.66566;-0.429578;
0.100105;3.67461;-0.421387;
0.100105;3.68354;-0.413194;
0.100106;3.69246;-0.405;
0.100106;3.70137;-0.396804;
0.100106;3.71026;-0.388607;
0.100106;3.71914;-0.380409;
0.100107;3.72801;-0.372209;
0.100107;3.73687;-0.364008;
0.100107;3.74571;-0.355806;
0.100108;3.75454;-0.347602;
0.100108;3.76335;-0.339397;
0.100108;3.77215;-0.331191;
0.100109;3.78094;-0.322984;
0.100109;3.78972;-0.314775;
0.100109;3.79848;-0.306566;
0.100109;3.80723;-0.298355;
0.10011;3.81596;-0.290143;
0.10011;3.82468;-0.281931;
0.10011;3.83339;-0.273717;
0.100111;3.84208;-0.265502;
0.100111;3.85076;-0.257287;
0.100111;3.85943;-0.24907;
0.100112;3.86808;-0.240853;
0.100112;3.87672;-0.232634;
0.100112;3.88535;-0.224415;
0.100112;3.89396;-0.216195;
0.100113;3.90256;-0.207975;
0.100113;3.91114;-0.199753;
0.100113;3.91971;-0.191531;
0.100114;3.92826;-0.183308;
0.100114;3.93681;-0.175085;
0.100114;3.94533;-0.166861;
0.100115;3.95385;-0.158636;
0.100115;3.96235;-0.150411;
0.100115;3.97083;-0.142185;
0.100115;3.97931;-0.133959;
0.100116;3.98776;-0.125732;
0.100116;3.99621;-0.117505;
0.100116;4.00463;-0.109277;
0.100117;4.01305;-0.101049;
0.100117;4.02145;-0.0928207;
0.100117;4.02984;-0.084592;
0.100118;4.03821;-0.076363;
0.100118;4.04657;-0.0681338;
0.100118;4.05491;-0.0599043;
0.100118;4.06324;-0.0516745;
0.100119;4.07155;-0.0434446;
0.100119;4.07985;-0.0352146;
0.100119;4.08814;-0.0269844;
0.10012;4.09641;-0.0187541;
0.10012;4.10467;-0.0105237;
0.10012;4.11291;-0.00229334;
0.100121;4.12113;0.00593706;
0.100121;4.12935;0.0141674;
0.100121;4.13754;0.0223978;
0.100121;4.14573;0.030628;
0.100122;4.1539;0.0388581;
0.100122;4.16205;0.0470881;
0.100122;4.17019;0.055318;
0.100123;4.17831;0.0635476;
0.100123;4.18642;0.071777;
0.100123;4.19452;0.0800062;
0.100124;4.2026;0.088235;
0.100124;4.21066;0.0964636;
0.100124;4.21871;0.104692;
0.100124;4.22674;0.11292;
0.100125;4.23476;0.121147;
0.100125;4.24277;0.129374;
0.100125;4.25076;0.137601;
0.100126;4.25873;0.145827;
0.100126;4.26669;0.154052;
0.100126;4.27464;0.162277;
0.100127;4.28256;0.170502;
0.100127;4.29048;0.178725;
0.100127;4.29838;0.186949;
0.100127;4.30626;0.195171;
0.100128;4.31413;0.203393;
0.100128;4.32198;0.211614;
0.100128;4.32982;0.219834;
0.100129;4.33764;0.228054;
0.100129;4.34544;0.236273;
0.100129;4.35324;0.244491;
0.10013;4.36101;0.252708;
0.10013;4.36877;0.260924;
0.10013;4.37651;0.269139;
0.10013;4.38424;0.277353;
0.100131;4.39196;0.285567;
0.100131;4.39965;0.293779;
0.100131;4.40734;0.30199;
0.100132;4.415;0.3102;
0.100132;4.42265;0.318409;
0.100132;4.43029;0.326617;
0.100133;4.43791;0.334824;
0.100133;4.44551;0.34303;
0.100133;4.4531;0.351234;
0.100133;4.46067;0.359437;
0.100134;4.46823;0.367639;
0.100134;4.47577;0.375839;
0.100134;4.48329;0.384039;
0.100135;4.4908;0.392236;
0.100135;4.49829;0.400433;
0.100135;4.50577;0.408628;
0.100136;4.51323;0.416821;
0.100136;4.52067;0.425013;
0.100136;4.5281;0.433204;
0.100136;4.53551;0.441393;
0.100137;4.54291;0.44958;
0.100137;4.55029;0.457766;
0.100137;4.55765;0.465951;
0.100138;4.565;0.474133;
0.100138;4.57233;0.482314;
0.100138;4.57965;0.490493;
0.100139;4.58695;0.498671;
0.100139;4.59423;0.506846;
0.100139;4.60149;0.51502;
0.100139;4.60874;0.523192;
0.10014;4.61598;0.531362;
0.10014;4.62319;0.539531;
0.10014;4.6304;0.547697;
0.100141;4.63758;0.555861;
0.100141;4.64475;0.564024;
0.100141;4.6519;0.572184;
0.100142;4.65903;0.580343;
0.100142;4.66615;0.588499;
0.100142;4.67325;0.596653;
0.100142;4.68034;0.604805;
0.100143;4.68741;0.612955;
0.100143;4.69446;0.621103;
0.100143;4.70149;0.629249;
0.100144;4.70851;0.637392;
0.100144;4.71551;0.645533;
0.100144;4.7225;0.653672;
0.100145;4.72946;0.661808;
0.100145;4.73642;0.669943;
0.100145;4.74335;0.678074;
0.100145;4.75027;0.686204;
0.100146;4.75717;0.694331;
0.100146;4.76405;0.702455;
0.100146;4.77092;0.710577;
0.100147;4.77777;0.718696;
0.100147;4.7846;0.726813;
0.100147;4.79142;0.734927;
0.100148;4.79822;0.743039;
0.100148;4.805;0.751148;
0.100148;4.81176;0.759255;
0.100148;4.81851;0.767358;
0.100149;4.82524;0.775459;
0.100149;4.83195;0.783557;
0.100149;4.83865;0.791653;
0.10015;4.84533;0.799745;
0.10015;4.85199;0.807835;
0.10015;4.85864;0.815922;
0.100151;4.86526;0.824006;
0.100151;4.87187;0.832087;
0.100151;4.87847;0.840165;
0.100151;4.88504;0.84824;
0.100152;4.8916;0.856312;
0.100152;4.89814;0.864381;
0.100152;4.90466;0.872447;
0.100153;4.91117;0.88051;
0.100153;4.91766;0.88857;
0.100153;4.92413;0.896626;
0.100154;4.93058;0.90468;
0.100154;4.93702;0.91273;
0.100154;4.94344;0.920777;
0.100154;4.94984;0.928821;
0.100155;4.95622;0.936861;
0.100155;4.96258;0.944898;
0.100155;4.96893;0.952932;
0.100156;4.97526;0.960962;
0.100156;4.98158;0.968989;
0.100156;4.98787;0.977012;
0.100157;4.99415;0.985032;
0.100157;5.00041;0.993049;
0.100157;5.00665;1.00106;
0.100157;5.01287;1.00907;
0.100158;5.01908;1.01708;
0.100158;5.02527;1.02508;
0.100158;5.03144;1.03308;
0.100159;5.03759;1.04107;
0.100159;5.04372;1.04906;
0.100159;5.04984;1.05705;
0.10016;5.05594;1.06503;
0.10016;5.06202;1.07301;
0.10016;5.06808;1.08099;
0.10016;5.07413;1.08896;
0.100161;5.08015;1.09693;
0.100161;5.08616;1.1049;
0.100161;5.09215;1.11286;
0.100162;5.09813;1.12081;
0.100162;5.10408;1.12877;
0.100162;5.11002;1.13671;
0.100163;5.11594;1.14466;
0.100163;5.12184;1.1526;
0.100163;5.12772;1.16054;
0.100163;5.13358;1.16847;
0.100164;5.13943;1.1764;
0.100164;5.14525;1.18432;
0.100164;5.15106;1.19224;
0.100165;5.15685;1.20016;
0.100165;5.16262;1.20807;
0.100165;5.16838;1.21597;
0.100166;5.17411;1.22388;
0.100166;5.17983;1.23177;
0.100166;5.18553;1.23967;
0.100166;5.19121;1.24756;
0.100167;5.19687;1.25544;
0.100167;5.20251;1.26332;
0.100167;5.20814;1.2712;
0.100168;5.21375;1.27907;
0.100168;5.21933;1.28694;
0.100168;5.2249;1.2948;
0.100169;5.23045;1.30266;
0.100169;5.23598;1.31051;
0.100169;5.2415;1.31836;
0.100169;5.24699;1.3262;
0.10017;5.25247;1.33404;
0.10017;5.25793;1.34188;
0.10017;5.26337;1.34971;
0.100171;5.26879;1.35753;
0.100171;5.27419;1.36535;
0.100171;5.27957;1.37317;
0.100172;5.28493;1.38098;
0.100172;5.29028;1.38878;
0.100172;5.29561;1.39658;
0.100172;5.30091;1.40438;
0.100173;5.3062;1.41217;
0.100173;5.31147;1.41996;
0.100173;5.31672;1.42774;
0.100174;5.32195;1.43551;
0.100174;5.32717;1.44328;
0.100174;5.33236;1.45105;
0.100175;5.33754;1.45881;
0.100175;5.34269;1.46656;
0.100175;5.34783;1.47431;
0.100175;5.35295;1.48206;
0.100176;5.35805;1.4898;
0.100176;5.36313;1.49753;
0.100176;5.36819;1.50526;
0.100177;5.37323;1.51298;
0.100177;5.37826;1.5207;
0.100177;5.38326;1.52841;
0.100178;5.38824;1.53612;
0.100178;5.39321;1.54382;
0.100178;5.39816;1.55152;
0.100178;5.40308;1.55921;
0.100179;5.40799;1.56689;
0.100179;5.41288;1.57457;
0.100179;5.41775;1.58225;
0.10018;5.4226;1.58991;
0.10018;5.42743;1.59758;
0.10018;5.43224;1.60523;
0.100181;5.43704;1.61288;
0.100181;5.44181;1.62053;
0.100181;5.44656;1.62817;
0.100181;5.4513;1.6358;
0.100182;5.45601;1.64343;
0.100182;5.46071;1.65105;
0.100182;5.46539;1.65867;
0.100183;5.47004;1.66628;
0.100183;5.47468;1.67388;
0.100183;5.4793;1.68148;
0.100184;5.4839;1.68908;
0.100184;5.48848;1.69666;
0.100184;5.49304;1.70424;
0.100184;5.49758;1.71182;
0.100185;5.5021;1.71939;
0.100185;5.5066;1.72695;
0.100185;5.51108;1.7345;
0.100186;5.51554;1.74205;
0.100186;5.51999;1.7496;
0.100186;5.52441;1.75714;
0.100187;5.52881;1.76467;
0.100187;5.53319;1.77219;
0.100187;5.53756;1.77971;
0.100187;5.5419;1.78722;
0.100188;5.54623;1.79473;
0.100188;5.55053;1.80223;
0.100188;5.55482;1.80972;
0.100189;5.55908;1.81721;
0.100189;5.56333;1.82469;
0.100189;5.56755;1.83217;
0.10019;5.57176;1.83963;
0.10019;5.57595;1.84709;
0.10019;5.58011;1.85455;
0.10019;5.58426;1.862;
0.100191;5.58839;1.86944;
0.100191;5.59249;1.87687;
0.100191;5.59658;1.8843;
0.100192;5.60065;1.89172;
0.100192;5.60469;1.89914;
0.100192;5.60872;1.90654;
0.100193;5.61273;1.91394;
0.100193;5.61672;1.92134;
0.100193;5.62068;1.92873;
0.100193;5.62463;1.93611;
0.100194;5.62856;1.94348;
0.100194;5.63247;1.95085;
0.100194;5.63635;1.95821;
0.100195;5.64022;1.96556;
0.100195;5.64407;1.9729;
0.100195;5.6479;1.98024;
0.100196;5.6517;1.98758;
0.100196;5.65549;1.9949;
0.100196;5.65926;2.00222;
0.100196;5.663;2.00953;
0.100197;5.66673;2.01683;
0.100197;5.67044;2.02413;
0.100197;5.67412;2.03142;
0.100198;5.67779;2.0387;
0.100198;5.68144;2.04597;
0.100198;5.68506;2.05324;
0.100199;5.68867;2.0605;
0.100199;5.69225;2.06775;
0.100199;5.69582;2.075;
0.100199;5.69937;2.08224;
0.1002;5.70289;2.08947;
0.1002;5.70639;2.09669;
0.1002;5.70988;2.10391;
0.100201;5.71334;2.11111;
0.100201;5.71679;2.11831;
0.100201;5.72021;2.12551;
0.100202;5.72361;2.13269;
0.100202;5.727;2.13987;
0.100202;5.73036;2.14704;
0.100202;5.7337;2.1542;
0.100203;5.73702;2.16136;
0.100203;5.74032;2.16851;
0.100203;5.74361;2.17565;
0.100204;5.74687;2.18278;
0.100204;5.75011;2.1899;
0.100204;5.75333;2.19702;
0.100205;5.75653;2.20413;
0.100205;5.7597;2.21123;
0.100205;5.76286;2.21832;
0.100205;5.766;2.22541;
0.100206;5.76912;2.23248;
0.100206;5.77222;2.23955;
0.100206;5.77529;2.24662;
0.100207;5.77835;2.25367;
0.100207;5.78138;2.26071;
0.100207;5.7844;2.26775;
0.100208;5.78739;2.27478;
0.100208;5.79037;2.2818;
0.100208;5.79332;2.28881;
0.100208;5.79625;2.29582;
0.100209;5.79916;2.30282;
0.100209;5.80205;2.30981;
0.100209;5.80493;2.31679;
0.10021;5.80778;2.32376;
0.10021;5.81061;2.33072;
0.10021;5.81341;2.33768;
0.100211;5.8162;2.34462;
0.100211;5.81897;2.35156;
0.100211;5.82172;2.35849;
0.100211;5.82444;2.36542;
0.100212;5.82715;2.37233;
0.100212;5.82983;2.37924;
0.100212;5.8325;2.38613;
0.100213;5.83514;2.39302;
0.100213;5.83776;2.3999;
0.100213;5.84036;2.40677;
0.100214;5.84295;2.41364;
0.100214;5.84551;2.42049;
0.100214;5.84805;2.42734;
0.100214;5.85056;2.43417;
0.100215;5.85306;2.441;
0.100215;5.85554;2.44782;
0.100215;5.858;2.45463;
0.100216;5.86043;2.46143;
0.100216;5.86285;2.46823;
0.100216;5.86524;2.47501;
0.100217;5.86761;2.48179;
0.100217;5.86997;2.48856;
0.100217;5.8723;2.49531;
0.100217;5.87461;2.50206;
0.100218;5.8769;2.5088;
0.100218;5.87917;2.51554;
0.100218;5.88141;2.52226;
0.100219;5.88364;2.52897;
0.100219;5.88585;2.53568;
0.100219;5.88803;2.54237;
0.10022;5.8902;2.54906;
0.10022;5.89234;2.55574;
0.10022;5.89446;2.56241;
0.10022;5.89656;2.56907;
0.100221;5.89864;2.57572;
0.100221;5.9007;2.58236;
0.100221;5.90274;2.58899;
0.100222;5.90476;2.59561;
0.100222;5.90676;2.60223;
0.100222;5.90873;2.60883;
0.100223;5.91069;2.61543;
0.100223;5.91262;2.62201;
0.100223;5.91453;2.62859;
0.100223;5.91642;2.63516;
0.100224;5.9183;2.64171;
0.100224;5.92014;2.64826;
0.100224;5.92197;2.6548;
0.100225;5.92378;2.66133;
