time;V(/vd);V(/vrsh);
0.1;0.00268334;1.13232e-05;
0.100003;0.0215318;1.1429e-05;
0.100006;0.0403801;1.15444e-05;
0.100009;0.0592282;1.16735e-05;
0.100012;0.0780758;1.18228e-05;
0.100015;0.0969228;1.20031e-05;
0.100018;0.115769;1.22314e-05;
0.100021;0.134614;1.25353e-05;
0.100024;0.153457;1.29596e-05;
0.100027;0.172298;1.35768e-05;
0.10003;0.191135;1.45042e-05;
0.100033;0.209967;1.59325e-05;
0.100036;0.22879;1.817e-05;
0.100039;0.247598;2.17157e-05;
0.100042;0.266385;2.73747e-05;
0.100045;0.285137;3.6441e-05;
0.100048;0.303833;5.09806e-05;
0.100051;0.32244;7.42576e-05;
0.100054;0.340908;0.000111342;
0.100057;0.359161;0.000169904;
0.10006;0.377086;0.000261071;
0.100063;0.394532;0.000400007;
0.100066;0.41131;0.000605551;
0.100069;0.427216;0.000898224;
0.100072;0.442064;0.0012965;
0.100075;0.45573;0.00181278;
0.100078;0.468167;0.00245185;
0.100081;0.479433;0.00320784;
0.100084;0.48962;0.00407157;
0.100087;0.498851;0.00503059;
0.10009;0.507257;0.00607199;
0.100093;0.514957;0.00718383;
0.100096;0.522056;0.00835556;
0.100099;0.528643;0.00957827;
0.100102;0.534793;0.0108445;
0.100105;0.540567;0.0121479;
0.100108;0.546019;0.0134835;
0.100111;0.551189;0.0148469;
0.100114;0.556114;0.0162346;
0.100117;0.560823;0.0176436;
0.10012;0.565342;0.0190714;
0.100123;0.569692;0.0205159;
0.100126;0.573891;0.0219752;
0.100129;0.577954;0.0234477;
0.100132;0.581895;0.0249322;
0.100135;0.585725;0.0264275;
0.100138;0.589454;0.0279325;
0.100141;0.593092;0.0294465;
0.100144;0.596645;0.0309685;
0.100147;0.600122;0.0324979;
0.10015;0.603527;0.0340341;
0.100153;0.606866;0.0355765;
0.100156;0.610144;0.0371247;
0.100159;0.613366;0.0386782;
0.100162;0.616535;0.0402366;
0.100165;0.619655;0.0417996;
0.100168;0.622729;0.0433668;
0.100171;0.625759;0.044938;
0.100174;0.628749;0.0465128;
0.100177;0.631701;0.0480911;
0.10018;0.634617;0.0496726;
0.100183;0.637499;0.051257;
0.100186;0.640349;0.0528443;
0.100189;0.643168;0.0544341;
0.100192;0.645959;0.0560265;
0.100195;0.648722;0.0576211;
0.100198;0.651459;0.059218;
0.100201;0.654172;0.0608168;
0.100204;0.656861;0.0624176;
0.100207;0.659527;0.0640202;
0.10021;0.662172;0.0656244;
0.100213;0.664796;0.0672303;
0.100216;0.6674;0.0688376;
0.100219;0.669986;0.0704464;
0.100222;0.672553;0.0720565;
0.100225;0.675103;0.0736678;
0.100228;0.677636;0.0752803;
0.100231;0.680153;0.0768939;
0.100234;0.682655;0.0785085;
0.100237;0.685142;0.0801242;
0.10024;0.687614;0.0817407;
0.100243;0.690072;0.083358;
0.100246;0.692517;0.0849762;
0.100249;0.694949;0.0865951;
0.100252;0.697369;0.0882148;
0.100255;0.699776;0.089835;
0.100258;0.702172;0.0914559;
0.100261;0.704556;0.0930773;
0.100264;0.70693;0.0946993;
0.100267;0.709292;0.0963217;
0.10027;0.711645;0.0979446;
0.100273;0.713987;0.0995679;
0.100276;0.716319;0.101192;
0.100279;0.718642;0.102816;
0.100282;0.720956;0.10444;
0.100285;0.723261;0.106064;
0.100288;0.725556;0.107689;
0.100291;0.727844;0.109314;
0.100294;0.730123;0.110939;
0.100297;0.732394;0.112565;
0.1003;0.734657;0.11419;
0.100303;0.736912;0.115816;
0.100306;0.73916;0.117442;
0.100309;0.7414;0.119067;
0.100312;0.743634;0.120693;
0.100315;0.74586;0.122319;
0.100318;0.748079;0.123945;
0.100321;0.750292;0.12557;
0.100324;0.752498;0.127196;
0.100327;0.754697;0.128822;
0.10033;0.756891;0.130447;
0.100333;0.759078;0.132073;
0.100336;0.761259;0.133698;
0.100339;0.763434;0.135323;
0.100342;0.765603;0.136948;
0.100345;0.767767;0.138573;
0.100348;0.769925;0.140197;
0.100351;0.772077;0.141822;
0.100354;0.774224;0.143446;
0.100357;0.776366;0.145069;
0.10036;0.778502;0.146693;
0.100363;0.780634;0.148316;
0.100366;0.78276;0.149939;
0.100369;0.784882;0.151562;
0.100372;0.786998;0.153184;
0.100375;0.78911;0.154806;
0.100378;0.791217;0.156428;
0.100381;0.793319;0.158049;
0.100384;0.795417;0.15967;
0.100387;0.79751;0.161291;
0.10039;0.799599;0.162911;
0.100393;0.801684;0.16453;
0.100396;0.803764;0.166149;
0.100399;0.80584;0.167768;
0.100402;0.807911;0.169386;
0.100405;0.809979;0.171004;
0.100408;0.812042;0.172622;
0.100411;0.814102;0.174238;
0.100414;0.816157;0.175855;
0.100417;0.818208;0.177471;
0.10042;0.820256;0.179086;
0.100423;0.8223;0.180701;
0.100426;0.82434;0.182315;
0.100429;0.826376;0.183928;
0.100432;0.828408;0.185541;
0.100435;0.830437;0.187154;
0.100438;0.832462;0.188766;
0.100441;0.834484;0.190377;
0.100444;0.836502;0.191988;
0.100447;0.838516;0.193598;
0.10045;0.840527;0.195207;
0.100453;0.842535;0.196816;
0.100456;0.844539;0.198424;
0.100459;0.84654;0.200031;
0.100462;0.848537;0.201638;
0.100465;0.850531;0.203244;
0.100468;0.852522;0.204849;
0.100471;0.85451;0.206454;
0.100474;0.856494;0.208058;
0.100477;0.858475;0.209661;
0.10048;0.860453;0.211263;
0.100483;0.862428;0.212865;
0.100486;0.8644;0.214466;
0.100489;0.866368;0.216066;
0.100492;0.868334;0.217666;
0.100495;0.870296;0.219264;
0.100498;0.872256;0.220862;
0.100501;0.874212;0.222459;
0.100504;0.876166;0.224055;
0.100507;0.878116;0.225651;
0.10051;0.880064;0.227246;
0.100513;0.882009;0.228839;
0.100516;0.88395;0.230432;
0.100519;0.885889;0.232024;
0.100522;0.887825;0.233616;
0.100525;0.889758;0.235206;
0.100528;0.891689;0.236796;
0.100531;0.893616;0.238384;
0.100534;0.895541;0.239972;
0.100537;0.897463;0.241559;
0.10054;0.899382;0.243145;
0.100543;0.901299;0.24473;
0.100546;0.903212;0.246314;
0.100549;0.905123;0.247898;
0.100552;0.907031;0.24948;
0.100555;0.908937;0.251061;
0.100558;0.91084;0.252642;
0.100561;0.91274;0.254221;
0.100564;0.914638;0.2558;
0.100567;0.916533;0.257377;
0.10057;0.918425;0.258954;
0.100573;0.920315;0.260529;
0.100576;0.922202;0.262104;
0.100579;0.924086;0.263677;
0.100582;0.925968;0.26525;
0.100585;0.927848;0.266822;
0.100588;0.929724;0.268392;
0.100591;0.931599;0.269962;
0.100594;0.93347;0.27153;
0.100597;0.935339;0.273098;
0.1006;0.937206;0.274664;
0.100603;0.93907;0.276229;
0.100606;0.940932;0.277794;
0.100609;0.942791;0.279357;
0.100612;0.944647;0.280919;
0.100615;0.946501;0.28248;
0.100618;0.948353;0.28404;
0.100621;0.950202;0.285599;
0.100624;0.952049;0.287156;
0.100627;0.953893;0.288713;
0.10063;0.955735;0.290269;
0.100633;0.957574;0.291823;
0.100636;0.959411;0.293376;
0.100639;0.961245;0.294928;
0.100642;0.963077;0.296479;
0.100645;0.964907;0.298029;
0.100648;0.966734;0.299578;
0.100651;0.968559;0.301125;
0.100654;0.970381;0.302671;
0.100657;0.972201;0.304217;
0.10066;0.974019;0.305761;
0.100663;0.975834;0.307303;
0.100666;0.977646;0.308845;
0.100669;0.979457;0.310385;
0.100672;0.981265;0.311924;
0.100675;0.98307;0.313462;
0.100678;0.984874;0.314999;
0.100681;0.986675;0.316534;
0.100684;0.988473;0.318069;
0.100687;0.990269;0.319601;
0.10069;0.992063;0.321133;
0.100693;0.993854;0.322664;
0.100696;0.995644;0.324193;
0.100699;0.99743;0.325721;
0.100702;0.999215;0.327247;
0.100705;1.001;0.328773;
0.100708;1.00278;0.330297;
0.100711;1.00455;0.33182;
0.100714;1.00633;0.333341;
0.100717;1.0081;0.334861;
0.10072;1.00987;0.33638;
0.100723;1.01164;0.337898;
0.100726;1.01341;0.339414;
0.100729;1.01517;0.340929;
0.100732;1.01693;0.342442;
0.100735;1.01869;0.343954;
0.100738;1.02045;0.345465;
0.100741;1.0222;0.346975;
0.100744;1.02395;0.348483;
0.100747;1.0257;0.34999;
0.10075;1.02745;0.351495;
0.100753;1.02919;0.352999;
0.100756;1.03094;0.354501;
0.100759;1.03268;0.356003;
0.100762;1.03441;0.357502;
0.100765;1.03615;0.359001;
0.100768;1.03788;0.360498;
0.100771;1.03961;0.361993;
0.100774;1.04134;0.363487;
0.100777;1.04307;0.36498;
0.10078;1.04479;0.366471;
0.100783;1.04651;0.367961;
0.100786;1.04823;0.36945;
0.100789;1.04995;0.370937;
0.100792;1.05166;0.372422;
0.100795;1.05338;0.373906;
0.100798;1.05509;0.375389;
0.100801;1.0568;0.37687;
0.100804;1.0585;0.378349;
0.100807;1.0602;0.379827;
0.10081;1.06191;0.381304;
0.100813;1.0636;0.382779;
0.100816;1.0653;0.384252;
0.100819;1.06699;0.385724;
0.100822;1.06869;0.387195;
0.100825;1.07038;0.388664;
0.100828;1.07206;0.390132;
0.100831;1.07375;0.391597;
0.100834;1.07543;0.393062;
0.100837;1.07711;0.394525;
0.10084;1.07879;0.395986;
0.100843;1.08046;0.397446;
0.100846;1.08214;0.398904;
0.100849;1.08381;0.400361;
0.100852;1.08548;0.401816;
0.100855;1.08714;0.403269;
0.100858;1.08881;0.404721;
0.100861;1.09047;0.406171;
0.100864;1.09213;0.40762;
0.100867;1.09378;0.409067;
0.10087;1.09544;0.410512;
0.100873;1.09709;0.411956;
0.100876;1.09874;0.413399;
0.100879;1.10039;0.414839;
0.100882;1.10203;0.416278;
0.100885;1.10368;0.417715;
0.100888;1.10532;0.419151;
0.100891;1.10695;0.420585;
0.100894;1.10859;0.422018;
0.100897;1.11022;0.423448;
0.1009;1.11186;0.424877;
0.100903;1.11348;0.426305;
0.100906;1.11511;0.42773;
0.100909;1.11674;0.429155;
0.100912;1.11836;0.430577;
0.100915;1.11998;0.431998;
0.100918;1.12159;0.433416;
0.100921;1.12321;0.434834;
0.100924;1.12482;0.436249;
0.100927;1.12643;0.437663;
0.10093;1.12804;0.439075;
0.100933;1.12964;0.440486;
0.100936;1.13125;0.441894;
0.100939;1.13285;0.443301;
0.100942;1.13445;0.444706;
0.100945;1.13604;0.44611;
0.100948;1.13764;0.447512;
0.100951;1.13923;0.448911;
0.100954;1.14081;0.45031;
0.100957;1.1424;0.451706;
0.10096;1.14399;0.453101;
0.100963;1.14557;0.454494;
0.100966;1.14715;0.455885;
0.100969;1.14872;0.457274;
0.100972;1.1503;0.458661;
0.100975;1.15187;0.460047;
0.100978;1.15344;0.461431;
0.100981;1.15501;0.462813;
0.100984;1.15657;0.464193;
0.100987;1.15813;0.465572;
0.10099;1.15969;0.466948;
0.100993;1.16125;0.468323;
0.100996;1.16281;0.469696;
0.100999;1.16436;0.471067;
0.101002;1.16591;0.472437;
0.101005;1.16746;0.473804;
0.101008;1.169;0.47517;
0.101011;1.17055;0.476533;
0.101014;1.17209;0.477895;
0.101017;1.17362;0.479255;
0.10102;1.17516;0.480613;
0.101023;1.17669;0.481969;
0.101026;1.17822;0.483324;
0.101029;1.17975;0.484676;
0.101032;1.18128;0.486027;
0.101035;1.1828;0.487375;
0.101038;1.18432;0.488722;
0.101041;1.18584;0.490067;
0.101044;1.18736;0.49141;
0.101047;1.18887;0.492751;
0.10105;1.19038;0.49409;
0.101053;1.19189;0.495427;
0.101056;1.1934;0.496762;
0.101059;1.1949;0.498095;
0.101062;1.1964;0.499426;
0.101065;1.1979;0.500756;
0.101068;1.1994;0.502083;
0.101071;1.20089;0.503409;
0.101074;1.20238;0.504732;
0.101077;1.20387;0.506054;
0.10108;1.20536;0.507373;
0.101083;1.20684;0.508691;
0.101086;1.20833;0.510006;
0.101089;1.2098;0.51132;
0.101092;1.21128;0.512631;
0.101095;1.21276;0.513941;
0.101098;1.21423;0.515248;
0.101101;1.2157;0.516554;
0.101104;1.21716;0.517857;
0.101107;1.21863;0.519159;
0.10111;1.22009;0.520458;
0.101113;1.22155;0.521756;
0.101116;1.223;0.523051;
0.101119;1.22446;0.524344;
0.101122;1.22591;0.525636;
0.101125;1.22736;0.526925;
0.101128;1.2288;0.528212;
0.101131;1.23025;0.529497;
0.101134;1.23169;0.53078;
0.101137;1.23313;0.532061;
0.10114;1.23456;0.53334;
0.101143;1.236;0.534617;
0.101146;1.23743;0.535892;
0.101149;1.23886;0.537165;
0.101152;1.24028;0.538435;
0.101155;1.2417;0.539704;
0.101158;1.24313;0.54097;
0.101161;1.24454;0.542235;
0.101164;1.24596;0.543497;
0.101167;1.24737;0.544757;
0.10117;1.24878;0.546015;
0.101173;1.25019;0.547271;
0.101176;1.25159;0.548524;
0.101179;1.253;0.549776;
0.101182;1.2544;0.551025;
0.101185;1.25579;0.552273;
0.101188;1.25719;0.553518;
0.101191;1.25858;0.554761;
0.101194;1.25997;0.556002;
0.101197;1.26136;0.55724;
0.1012;1.26274;0.558477;
0.101203;1.26412;0.559711;
0.101206;1.2655;0.560943;
0.101209;1.26688;0.562173;
0.101212;1.26825;0.563401;
0.101215;1.26962;0.564627;
0.101218;1.27099;0.56585;
0.101221;1.27236;0.567071;
0.101224;1.27372;0.56829;
0.101227;1.27508;0.569507;
0.10123;1.27644;0.570722;
0.101233;1.2778;0.571934;
0.101236;1.27915;0.573144;
0.101239;1.2805;0.574352;
0.101242;1.28185;0.575558;
0.101245;1.28319;0.576761;
0.101248;1.28453;0.577962;
0.101251;1.28587;0.579161;
0.101254;1.28721;0.580358;
0.101257;1.28854;0.581553;
0.10126;1.28987;0.582745;
0.101263;1.2912;0.583935;
0.101266;1.29253;0.585122;
0.101269;1.29385;0.586308;
0.101272;1.29517;0.587491;
0.101275;1.29649;0.588672;
0.101278;1.29781;0.58985;
0.101281;1.29912;0.591027;
0.101284;1.30043;0.592201;
0.101287;1.30173;0.593373;
0.10129;1.30304;0.594542;
0.101293;1.30434;0.595709;
0.101296;1.30564;0.596874;
0.101299;1.30694;0.598036;
0.101302;1.30823;0.599197;
0.101305;1.30952;0.600354;
0.101308;1.31081;0.60151;
0.101311;1.31209;0.602663;
0.101314;1.31337;0.603814;
0.101317;1.31465;0.604963;
0.10132;1.31593;0.606109;
0.101323;1.31721;0.607253;
0.101326;1.31848;0.608394;
0.101329;1.31975;0.609533;
0.101332;1.32101;0.61067;
0.101335;1.32228;0.611805;
0.101338;1.32354;0.612937;
0.101341;1.32479;0.614066;
0.101344;1.32605;0.615194;
0.101347;1.3273;0.616319;
0.10135;1.32855;0.617441;
0.101353;1.3298;0.618561;
0.101356;1.33104;0.619679;
0.101359;1.33228;0.620794;
0.101362;1.33352;0.621907;
0.101365;1.33475;0.623018;
0.101368;1.33599;0.624126;
0.101371;1.33722;0.625232;
0.101374;1.33844;0.626335;
0.101377;1.33967;0.627436;
0.10138;1.34089;0.628535;
0.101383;1.34211;0.629631;
0.101386;1.34332;0.630724;
0.101389;1.34454;0.631816;
0.101392;1.34575;0.632904;
0.101395;1.34695;0.633991;
0.101398;1.34816;0.635074;
0.101401;1.34936;0.636156;
0.101404;1.35056;0.637235;
0.101407;1.35175;0.638311;
0.10141;1.35295;0.639385;
0.101413;1.35414;0.640457;
0.101416;1.35532;0.641526;
0.101419;1.35651;0.642593;
0.101422;1.35769;0.643657;
0.101425;1.35887;0.644718;
0.101428;1.36004;0.645778;
0.101431;1.36122;0.646834;
0.101434;1.36239;0.647889;
0.101437;1.36355;0.64894;
0.10144;1.36472;0.649989;
0.101443;1.36588;0.651036;
0.101446;1.36704;0.65208;
0.101449;1.36819;0.653122;
0.101452;1.36935;0.654161;
0.101455;1.3705;0.655198;
0.101458;1.37164;0.656232;
0.101461;1.37279;0.657263;
0.101464;1.37393;0.658292;
0.101467;1.37507;0.659319;
0.10147;1.3762;0.660343;
0.101473;1.37733;0.661364;
0.101476;1.37846;0.662383;
0.101479;1.37959;0.663399;
0.101482;1.38071;0.664413;
0.101485;1.38184;0.665424;
0.101488;1.38295;0.666433;
0.101491;1.38407;0.667439;
0.101494;1.38518;0.668443;
0.101497;1.38629;0.669443;
0.1015;1.3874;0.670442;
0.101503;1.3885;0.671438;
0.101506;1.3896;0.672431;
0.101509;1.3907;0.673421;
0.101512;1.39179;0.674409;
0.101515;1.39288;0.675395;
0.101518;1.39397;0.676378;
0.101521;1.39506;0.677358;
0.101524;1.39614;0.678335;
0.101527;1.39722;0.67931;
0.10153;1.39829;0.680283;
0.101533;1.39937;0.681253;
0.101536;1.40044;0.68222;
0.101539;1.40151;0.683184;
0.101542;1.40257;0.684146;
0.101545;1.40363;0.685105;
0.101548;1.40469;0.686062;
0.101551;1.40575;0.687016;
0.101554;1.4068;0.687967;
0.101557;1.40785;0.688916;
0.10156;1.40889;0.689862;
0.101563;1.40994;0.690806;
0.101566;1.41098;0.691746;
0.101569;1.41202;0.692684;
0.101572;1.41305;0.69362;
0.101575;1.41408;0.694553;
0.101578;1.41511;0.695483;
0.101581;1.41614;0.69641;
0.101584;1.41716;0.697335;
0.101587;1.41818;0.698257;
0.10159;1.41919;0.699176;
0.101593;1.42021;0.700093;
0.101596;1.42122;0.701007;
0.101599;1.42223;0.701918;
0.101602;1.42323;0.702827;
0.101605;1.42423;0.703733;
0.101608;1.42523;0.704636;
0.101611;1.42622;0.705537;
0.101614;1.42722;0.706435;
0.101617;1.42821;0.70733;
0.10162;1.42919;0.708222;
0.101623;1.43017;0.709112;
0.101626;1.43115;0.709999;
0.101629;1.43213;0.710883;
0.101632;1.4331;0.711765;
0.101635;1.43408;0.712643;
0.101638;1.43504;0.713519;
0.101641;1.43601;0.714393;
0.101644;1.43697;0.715263;
0.101647;1.43793;0.716131;
0.10165;1.43888;0.716996;
0.101653;1.43983;0.717859;
0.101656;1.44078;0.718718;
0.101659;1.44173;0.719575;
0.101662;1.44267;0.720429;
0.101665;1.44361;0.72128;
0.101668;1.44455;0.722129;
0.101671;1.44548;0.722975;
0.101674;1.44641;0.723818;
0.101677;1.44734;0.724658;
0.10168;1.44826;0.725495;
0.101683;1.44918;0.72633;
0.101686;1.4501;0.727162;
0.101689;1.45102;0.727991;
0.101692;1.45193;0.728817;
0.101695;1.45284;0.729641;
0.101698;1.45374;0.730461;
0.101701;1.45464;0.731279;
0.101704;1.45554;0.732094;
0.101707;1.45644;0.732907;
0.10171;1.45733;0.733716;
0.101713;1.45822;0.734523;
0.101716;1.45911;0.735327;
0.101719;1.45999;0.736128;
0.101722;1.46087;0.736926;
0.101725;1.46175;0.737722;
0.101728;1.46262;0.738514;
0.101731;1.46349;0.739304;
0.101734;1.46436;0.740091;
0.101737;1.46523;0.740875;
0.10174;1.46609;0.741656;
0.101743;1.46694;0.742435;
0.101746;1.4678;0.74321;
0.101749;1.46865;0.743983;
0.101752;1.4695;0.744753;
0.101755;1.47035;0.74552;
0.101758;1.47119;0.746284;
0.101761;1.47203;0.747046;
0.101764;1.47286;0.747804;
0.101767;1.47369;0.74856;
0.10177;1.47452;0.749312;
0.101773;1.47535;0.750062;
0.101776;1.47617;0.750809;
0.101779;1.47699;0.751553;
0.101782;1.47781;0.752295;
0.101785;1.47862;0.753033;
0.101788;1.47943;0.753769;
0.101791;1.48024;0.754501;
0.101794;1.48104;0.755231;
0.101797;1.48184;0.755958;
0.1018;1.48264;0.756682;
0.101803;1.48344;0.757403;
0.101806;1.48423;0.758121;
0.101809;1.48501;0.758836;
0.101812;1.4858;0.759549;
0.101815;1.48658;0.760258;
0.101818;1.48736;0.760965;
0.101821;1.48813;0.761669;
0.101824;1.4889;0.762369;
0.101827;1.48967;0.763067;
0.10183;1.49044;0.763762;
0.101833;1.4912;0.764454;
0.101836;1.49196;0.765143;
0.101839;1.49271;0.765829;
0.101842;1.49346;0.766513;
0.101845;1.49421;0.767193;
0.101848;1.49496;0.76787;
0.101851;1.4957;0.768545;
0.101854;1.49644;0.769216;
0.101857;1.49718;0.769885;
0.10186;1.49791;0.77055;
0.101863;1.49864;0.771213;
0.101866;1.49936;0.771873;
0.101869;1.50009;0.77253;
0.101872;1.50081;0.773183;
0.101875;1.50152;0.773834;
0.101878;1.50223;0.774482;
0.101881;1.50294;0.775127;
0.101884;1.50365;0.775769;
0.101887;1.50435;0.776408;
0.10189;1.50505;0.777044;
0.101893;1.50575;0.777678;
0.101896;1.50644;0.778308;
0.101899;1.50713;0.778935;
0.101902;1.50782;0.779559;
0.101905;1.5085;0.78018;
0.101908;1.50918;0.780799;
0.101911;1.50986;0.781414;
0.101914;1.51053;0.782026;
0.101917;1.5112;0.782635;
0.10192;1.51187;0.783242;
0.101923;1.51253;0.783845;
0.101926;1.51319;0.784445;
0.101929;1.51385;0.785043;
0.101932;1.5145;0.785637;
0.101935;1.51515;0.786228;
0.101938;1.5158;0.786817;
0.101941;1.51644;0.787402;
0.101944;1.51708;0.787985;
0.101947;1.51772;0.788564;
0.10195;1.51835;0.78914;
0.101953;1.51898;0.789714;
0.101956;1.51961;0.790284;
0.101959;1.52023;0.790851;
0.101962;1.52085;0.791415;
0.101965;1.52147;0.791977;
0.101968;1.52208;0.792535;
0.101971;1.52269;0.79309;
0.101974;1.5233;0.793642;
0.101977;1.5239;0.794191;
0.10198;1.5245;0.794738;
0.101983;1.5251;0.795281;
0.101986;1.52569;0.795821;
0.101989;1.52628;0.796358;
0.101992;1.52687;0.796892;
0.101995;1.52745;0.797423;
0.101998;1.52803;0.797951;
0.102001;1.52861;0.798476;
0.102004;1.52918;0.798997;
0.102007;1.52975;0.799516;
0.10201;1.53032;0.800032;
0.102013;1.53088;0.800545;
0.102016;1.53144;0.801054;
0.102019;1.532;0.801561;
0.102022;1.53255;0.802064;
0.102025;1.5331;0.802565;
0.102028;1.53365;0.803062;
0.102031;1.53419;0.803557;
0.102034;1.53473;0.804048;
0.102037;1.53527;0.804536;
0.10204;1.5358;0.805021;
0.102043;1.53633;0.805503;
0.102046;1.53686;0.805982;
0.102049;1.53738;0.806458;
0.102052;1.5379;0.806931;
0.102055;1.53841;0.807401;
0.102058;1.53893;0.807868;
0.102061;1.53944;0.808332;
0.102064;1.53994;0.808792;
0.102067;1.54044;0.80925;
0.10207;1.54094;0.809704;
0.102073;1.54144;0.810155;
0.102076;1.54193;0.810604;
0.102079;1.54242;0.811049;
0.102082;1.5429;0.811491;
0.102085;1.54339;0.81193;
0.102088;1.54386;0.812366;
0.102091;1.54434;0.812798;
0.102094;1.54481;0.813228;
0.102097;1.54528;0.813655;
0.1021;1.54574;0.814078;
0.102103;1.54621;0.814499;
0.102106;1.54666;0.814916;
0.102109;1.54712;0.81533;
0.102112;1.54757;0.815741;
0.102115;1.54802;0.816149;
0.102118;1.54846;0.816554;
0.102121;1.5489;0.816956;
0.102124;1.54934;0.817354;
0.102127;1.54977;0.81775;
0.10213;1.55021;0.818142;
0.102133;1.55063;0.818532;
0.102136;1.55106;0.818918;
0.102139;1.55148;0.819301;
0.102142;1.55189;0.819681;
0.102145;1.55231;0.820058;
0.102148;1.55272;0.820431;
0.102151;1.55312;0.820802;
0.102154;1.55353;0.82117;
0.102157;1.55393;0.821534;
0.10216;1.55432;0.821895;
0.102163;1.55472;0.822253;
0.102166;1.55511;0.822608;
0.102169;1.55549;0.82296;
0.102172;1.55587;0.823309;
0.102175;1.55625;0.823654;
0.102178;1.55663;0.823997;
0.102181;1.557;0.824336;
0.102184;1.55737;0.824672;
0.102187;1.55774;0.825005;
0.10219;1.5581;0.825335;
0.102193;1.55846;0.825662;
0.102196;1.55881;0.825985;
0.102199;1.55916;0.826306;
